         * c:\users\dell\esim-workspace\mod-10_ripple\mod-10_ripple.cir
         Transient Analysis  Sat Oct 08 20:35:21  2022
--------------------------------------------------------------------------------
Index   time            clkin           m.x1.xm1.msky13 m.x1.xm1.msky13 
--------------------------------------------------------------------------------
0	0.000000e+00	2.669706e-04	1.668046e-02	1.668046e-02	
1	1.000000e-05	2.669706e-04	1.668046e-02	1.668046e-02	
2	2.000000e-05	2.669706e-04	1.668046e-02	1.668046e-02	
3	4.000000e-05	2.669706e-04	1.668046e-02	1.668046e-02	
4	8.000000e-05	2.669706e-04	1.668045e-02	1.668045e-02	
5	1.600000e-04	2.669706e-04	1.668045e-02	1.668045e-02	
6	3.200000e-04	2.669706e-04	1.668044e-02	1.668044e-02	
7	6.400000e-04	2.669706e-04	1.668043e-02	1.668043e-02	
8	1.280000e-03	2.669706e-04	1.668043e-02	1.668043e-02	
9	1.500000e-03	2.669706e-04	1.668043e-02	1.668043e-02	
10	1.628000e-03	2.669706e-04	1.668042e-02	1.668042e-02	
11	1.884000e-03	2.669706e-04	1.668041e-02	1.668042e-02	
12	2.396000e-03	2.669706e-04	1.668041e-02	1.668041e-02	
13	3.420000e-03	2.669706e-04	1.668040e-02	1.668040e-02	
14	4.920000e-03	2.669706e-04	1.668039e-02	1.668039e-02	
15	6.420000e-03	2.669706e-04	1.668038e-02	1.668038e-02	
16	7.920000e-03	2.669706e-04	1.668038e-02	1.668038e-02	
17	9.420000e-03	2.669706e-04	1.668037e-02	1.668037e-02	
18	9.500000e-03	2.669706e-04	1.668037e-02	1.668037e-02	
19	9.650000e-03	2.669706e-04	1.668038e-02	1.668038e-02	
20	9.950000e-03	2.669706e-04	1.668039e-02	1.668039e-02	
21	1.055000e-02	2.669706e-04	1.668040e-02	1.668040e-02	
22	1.100000e-02	2.669706e-04	1.668040e-02	1.668040e-02	
23	1.112000e-02	2.669706e-04	1.668040e-02	1.668040e-02	
24	1.136000e-02	2.669706e-04	1.668040e-02	1.668040e-02	
25	1.184000e-02	2.669706e-04	1.668040e-02	1.668040e-02	
26	1.280000e-02	2.669706e-04	1.668039e-02	1.668039e-02	
27	1.430000e-02	2.669706e-04	1.668038e-02	1.668038e-02	
28	1.580000e-02	2.669706e-04	1.668037e-02	1.668037e-02	
29	1.730000e-02	2.669706e-04	1.668038e-02	1.668038e-02	
30	1.880000e-02	2.669706e-04	1.668038e-02	1.668038e-02	
31	2.030000e-02	2.669706e-04	1.668037e-02	1.668037e-02	
32	2.180000e-02	2.669706e-04	1.668037e-02	1.668037e-02	
33	2.330000e-02	2.669706e-04	1.668038e-02	1.668038e-02	
34	2.480000e-02	2.669706e-04	1.668037e-02	1.668037e-02	
35	2.630000e-02	2.669706e-04	1.668037e-02	1.668037e-02	
36	2.780000e-02	2.669706e-04	1.668037e-02	1.668037e-02	
37	2.930000e-02	2.669706e-04	1.668036e-02	1.668036e-02	
38	3.080000e-02	2.669706e-04	1.668036e-02	1.668036e-02	
39	3.230000e-02	2.669706e-04	1.668037e-02	1.668037e-02	
40	3.380000e-02	2.669706e-04	1.668037e-02	1.668037e-02	
41	3.530000e-02	2.669706e-04	1.668036e-02	1.668036e-02	
42	3.680000e-02	2.669706e-04	1.668037e-02	1.668037e-02	
43	3.830000e-02	2.669706e-04	1.668037e-02	1.668037e-02	
44	3.980000e-02	2.669706e-04	1.668036e-02	1.668036e-02	
45	4.130000e-02	2.669706e-04	1.668036e-02	1.668036e-02	
46	4.280000e-02	2.669706e-04	1.668037e-02	1.668037e-02	
47	4.430000e-02	2.669706e-04	1.668037e-02	1.668037e-02	
48	4.580000e-02	2.669706e-04	1.668036e-02	1.668036e-02	
49	4.730000e-02	2.669706e-04	1.668037e-02	1.668037e-02	
50	4.880000e-02	2.669706e-04	1.668037e-02	1.668037e-02	
51	5.030000e-02	2.669706e-04	1.668037e-02	1.668037e-02	
52	5.180000e-02	2.669706e-04	1.668038e-02	1.668038e-02	
53	5.330000e-02	2.669706e-04	1.668037e-02	1.668037e-02	
54	5.480000e-02	2.669706e-04	1.668037e-02	1.668037e-02	

Index   time            clkin           m.x1.xm1.msky13 m.x1.xm1.msky13 
--------------------------------------------------------------------------------
55	5.630000e-02	2.669706e-04	1.668038e-02	1.668038e-02	
56	5.780000e-02	2.669706e-04	1.668037e-02	1.668037e-02	
57	5.930000e-02	2.669706e-04	1.668037e-02	1.668037e-02	
58	6.080000e-02	2.669706e-04	1.668037e-02	1.668037e-02	
59	6.230000e-02	2.669706e-04	1.668037e-02	1.668037e-02	
60	6.380000e-02	2.669706e-04	1.668038e-02	1.668038e-02	
61	6.530000e-02	2.669706e-04	1.668037e-02	1.668037e-02	
62	6.680000e-02	2.669706e-04	1.668037e-02	1.668037e-02	
63	6.830000e-02	2.669706e-04	1.668038e-02	1.668038e-02	
64	6.980000e-02	2.669706e-04	1.668037e-02	1.668037e-02	
65	7.130000e-02	2.669706e-04	1.668036e-02	1.668036e-02	
66	7.280000e-02	2.669706e-04	1.668036e-02	1.668036e-02	
67	7.430000e-02	2.669706e-04	1.668037e-02	1.668037e-02	
68	7.580000e-02	2.669706e-04	1.668037e-02	1.668037e-02	
69	7.730000e-02	2.669706e-04	1.668037e-02	1.668037e-02	
70	7.880000e-02	2.669706e-04	1.668038e-02	1.668038e-02	
71	8.030000e-02	2.669706e-04	1.668037e-02	1.668037e-02	
72	8.180000e-02	2.669706e-04	1.668037e-02	1.668037e-02	
73	8.330000e-02	2.669706e-04	1.668038e-02	1.668038e-02	
74	8.480000e-02	2.669706e-04	1.668037e-02	1.668037e-02	
75	8.630000e-02	2.669706e-04	1.668037e-02	1.668037e-02	
76	8.780000e-02	2.669706e-04	1.668038e-02	1.668038e-02	
77	8.930000e-02	2.669706e-04	1.668037e-02	1.668037e-02	
78	9.080000e-02	2.669706e-04	1.668037e-02	1.668037e-02	
79	9.230000e-02	2.669706e-04	1.668038e-02	1.668038e-02	
80	9.380000e-02	2.669706e-04	1.668037e-02	1.668037e-02	
81	9.530000e-02	2.669706e-04	1.668037e-02	1.668037e-02	
82	9.680000e-02	2.669706e-04	1.668038e-02	1.668038e-02	
83	9.830000e-02	2.669706e-04	1.668037e-02	1.668037e-02	
84	9.980000e-02	2.669706e-04	1.668037e-02	1.668037e-02	
85	1.000000e-01	2.669706e-04	1.668037e-02	1.668037e-02	

         * c:\users\dell\esim-workspace\mod-10_ripple\mod-10_ripple.cir
         Transient Analysis  Sat Oct 08 20:35:21  2022
--------------------------------------------------------------------------------
Index   time                            m.x1.xm1.msky13 m.x1.xm2.msky13 
--------------------------------------------------------------------------------
0	0.000000e+00	0.000000e+00	1.668046e-02	1.668046e-02	
1	1.000000e-05	0.000000e+00	1.668046e-02	1.668046e-02	
2	2.000000e-05	0.000000e+00	1.668046e-02	1.668046e-02	
3	4.000000e-05	0.000000e+00	1.668046e-02	1.668046e-02	
4	8.000000e-05	0.000000e+00	1.668045e-02	1.668045e-02	
5	1.600000e-04	0.000000e+00	1.668045e-02	1.668045e-02	
6	3.200000e-04	0.000000e+00	1.668044e-02	1.668044e-02	
7	6.400000e-04	0.000000e+00	1.668043e-02	1.668043e-02	
8	1.280000e-03	0.000000e+00	1.668043e-02	1.668043e-02	
9	1.500000e-03	0.000000e+00	1.668043e-02	1.668043e-02	
10	1.628000e-03	0.000000e+00	1.668042e-02	1.668042e-02	
11	1.884000e-03	0.000000e+00	1.668041e-02	1.668041e-02	
12	2.396000e-03	0.000000e+00	1.668041e-02	1.668041e-02	
13	3.420000e-03	0.000000e+00	1.668040e-02	1.668040e-02	
14	4.920000e-03	0.000000e+00	1.668039e-02	1.668039e-02	
15	6.420000e-03	0.000000e+00	1.668038e-02	1.668038e-02	
16	7.920000e-03	0.000000e+00	1.668038e-02	1.668038e-02	
17	9.420000e-03	0.000000e+00	1.668037e-02	1.668037e-02	
18	9.500000e-03	0.000000e+00	1.668037e-02	1.668037e-02	
19	9.650000e-03	0.000000e+00	1.668038e-02	1.668038e-02	
20	9.950000e-03	0.000000e+00	1.668039e-02	1.668039e-02	
21	1.055000e-02	0.000000e+00	1.668040e-02	1.668040e-02	
22	1.100000e-02	0.000000e+00	1.668040e-02	1.668040e-02	
23	1.112000e-02	0.000000e+00	1.668040e-02	1.668040e-02	
24	1.136000e-02	0.000000e+00	1.668040e-02	1.668040e-02	
25	1.184000e-02	0.000000e+00	1.668040e-02	1.668040e-02	
26	1.280000e-02	0.000000e+00	1.668039e-02	1.668039e-02	
27	1.430000e-02	0.000000e+00	1.668038e-02	1.668038e-02	
28	1.580000e-02	0.000000e+00	1.668037e-02	1.668037e-02	
29	1.730000e-02	0.000000e+00	1.668038e-02	1.668038e-02	
30	1.880000e-02	0.000000e+00	1.668038e-02	1.668038e-02	
31	2.030000e-02	0.000000e+00	1.668037e-02	1.668037e-02	
32	2.180000e-02	0.000000e+00	1.668037e-02	1.668037e-02	
33	2.330000e-02	0.000000e+00	1.668038e-02	1.668038e-02	
34	2.480000e-02	0.000000e+00	1.668037e-02	1.668037e-02	
35	2.630000e-02	0.000000e+00	1.668037e-02	1.668037e-02	
36	2.780000e-02	0.000000e+00	1.668037e-02	1.668037e-02	
37	2.930000e-02	0.000000e+00	1.668036e-02	1.668036e-02	
38	3.080000e-02	0.000000e+00	1.668036e-02	1.668036e-02	
39	3.230000e-02	0.000000e+00	1.668037e-02	1.668037e-02	
40	3.380000e-02	0.000000e+00	1.668037e-02	1.668037e-02	
41	3.530000e-02	0.000000e+00	1.668036e-02	1.668036e-02	
42	3.680000e-02	0.000000e+00	1.668037e-02	1.668037e-02	
43	3.830000e-02	0.000000e+00	1.668037e-02	1.668037e-02	
44	3.980000e-02	0.000000e+00	1.668036e-02	1.668036e-02	
45	4.130000e-02	0.000000e+00	1.668036e-02	1.668036e-02	
46	4.280000e-02	0.000000e+00	1.668037e-02	1.668037e-02	
47	4.430000e-02	0.000000e+00	1.668037e-02	1.668037e-02	
48	4.580000e-02	0.000000e+00	1.668036e-02	1.668036e-02	
49	4.730000e-02	0.000000e+00	1.668037e-02	1.668037e-02	
50	4.880000e-02	0.000000e+00	1.668037e-02	1.668037e-02	
51	5.030000e-02	0.000000e+00	1.668037e-02	1.668037e-02	
52	5.180000e-02	0.000000e+00	1.668038e-02	1.668038e-02	
53	5.330000e-02	0.000000e+00	1.668037e-02	1.668037e-02	
54	5.480000e-02	0.000000e+00	1.668037e-02	1.668037e-02	

Index   time                            m.x1.xm1.msky13 m.x1.xm2.msky13 
--------------------------------------------------------------------------------
55	5.630000e-02	0.000000e+00	1.668038e-02	1.668038e-02	
56	5.780000e-02	0.000000e+00	1.668037e-02	1.668037e-02	
57	5.930000e-02	0.000000e+00	1.668037e-02	1.668037e-02	
58	6.080000e-02	0.000000e+00	1.668037e-02	1.668037e-02	
59	6.230000e-02	0.000000e+00	1.668037e-02	1.668037e-02	
60	6.380000e-02	0.000000e+00	1.668038e-02	1.668038e-02	
61	6.530000e-02	0.000000e+00	1.668037e-02	1.668037e-02	
62	6.680000e-02	0.000000e+00	1.668037e-02	1.668037e-02	
63	6.830000e-02	0.000000e+00	1.668038e-02	1.668038e-02	
64	6.980000e-02	0.000000e+00	1.668037e-02	1.668037e-02	
65	7.130000e-02	0.000000e+00	1.668036e-02	1.668036e-02	
66	7.280000e-02	0.000000e+00	1.668036e-02	1.668036e-02	
67	7.430000e-02	0.000000e+00	1.668037e-02	1.668037e-02	
68	7.580000e-02	0.000000e+00	1.668037e-02	1.668037e-02	
69	7.730000e-02	0.000000e+00	1.668037e-02	1.668037e-02	
70	7.880000e-02	0.000000e+00	1.668038e-02	1.668038e-02	
71	8.030000e-02	0.000000e+00	1.668037e-02	1.668037e-02	
72	8.180000e-02	0.000000e+00	1.668037e-02	1.668037e-02	
73	8.330000e-02	0.000000e+00	1.668038e-02	1.668038e-02	
74	8.480000e-02	0.000000e+00	1.668037e-02	1.668037e-02	
75	8.630000e-02	0.000000e+00	1.668037e-02	1.668037e-02	
76	8.780000e-02	0.000000e+00	1.668038e-02	1.668038e-02	
77	8.930000e-02	0.000000e+00	1.668037e-02	1.668037e-02	
78	9.080000e-02	0.000000e+00	1.668037e-02	1.668037e-02	
79	9.230000e-02	0.000000e+00	1.668038e-02	1.668038e-02	
80	9.380000e-02	0.000000e+00	1.668037e-02	1.668037e-02	
81	9.530000e-02	0.000000e+00	1.668037e-02	1.668037e-02	
82	9.680000e-02	0.000000e+00	1.668038e-02	1.668038e-02	
83	9.830000e-02	0.000000e+00	1.668037e-02	1.668037e-02	
84	9.980000e-02	0.000000e+00	1.668037e-02	1.668037e-02	
85	1.000000e-01	0.000000e+00	1.668037e-02	1.668037e-02	

         * c:\users\dell\esim-workspace\mod-10_ripple\mod-10_ripple.cir
         Transient Analysis  Sat Oct 08 20:35:21  2022
--------------------------------------------------------------------------------
Index   time            m.x1.xm2.msky13 m.x1.xm2.msky13 m.x1.xm3.msky13 
--------------------------------------------------------------------------------
0	0.000000e+00	1.668046e-02	1.668046e-02	5.000000e+00	
1	1.000000e-05	1.668046e-02	1.668046e-02	5.000000e+00	
2	2.000000e-05	1.668046e-02	1.668046e-02	5.000000e+00	
3	4.000000e-05	1.668046e-02	1.668046e-02	5.000000e+00	
4	8.000000e-05	1.668045e-02	1.668045e-02	5.000000e+00	
5	1.600000e-04	1.668045e-02	1.668045e-02	5.000000e+00	
6	3.200000e-04	1.668044e-02	1.668044e-02	5.000000e+00	
7	6.400000e-04	1.668043e-02	1.668043e-02	5.000000e+00	
8	1.280000e-03	1.668043e-02	1.668043e-02	5.000000e+00	
9	1.500000e-03	1.668043e-02	1.668043e-02	5.000000e+00	
10	1.628000e-03	1.668042e-02	1.668042e-02	5.000000e+00	
11	1.884000e-03	1.668042e-02	1.668041e-02	5.000000e+00	
12	2.396000e-03	1.668041e-02	1.668041e-02	5.000000e+00	
13	3.420000e-03	1.668040e-02	1.668040e-02	5.000000e+00	
14	4.920000e-03	1.668039e-02	1.668039e-02	5.000000e+00	
15	6.420000e-03	1.668038e-02	1.668038e-02	5.000000e+00	
16	7.920000e-03	1.668038e-02	1.668038e-02	5.000000e+00	
17	9.420000e-03	1.668037e-02	1.668037e-02	5.000000e+00	
18	9.500000e-03	1.668037e-02	1.668037e-02	5.000000e+00	
19	9.650000e-03	1.668038e-02	1.668038e-02	5.000000e+00	
20	9.950000e-03	1.668039e-02	1.668039e-02	5.000000e+00	
21	1.055000e-02	1.668040e-02	1.668040e-02	5.000000e+00	
22	1.100000e-02	1.668040e-02	1.668040e-02	5.000000e+00	
23	1.112000e-02	1.668040e-02	1.668040e-02	5.000000e+00	
24	1.136000e-02	1.668040e-02	1.668040e-02	5.000000e+00	
25	1.184000e-02	1.668040e-02	1.668040e-02	5.000000e+00	
26	1.280000e-02	1.668039e-02	1.668039e-02	5.000000e+00	
27	1.430000e-02	1.668038e-02	1.668038e-02	5.000000e+00	
28	1.580000e-02	1.668037e-02	1.668037e-02	5.000000e+00	
29	1.730000e-02	1.668038e-02	1.668038e-02	5.000000e+00	
30	1.880000e-02	1.668038e-02	1.668038e-02	5.000000e+00	
31	2.030000e-02	1.668037e-02	1.668037e-02	5.000000e+00	
32	2.180000e-02	1.668037e-02	1.668037e-02	5.000000e+00	
33	2.330000e-02	1.668038e-02	1.668038e-02	5.000000e+00	
34	2.480000e-02	1.668037e-02	1.668037e-02	5.000000e+00	
35	2.630000e-02	1.668037e-02	1.668037e-02	5.000000e+00	
36	2.780000e-02	1.668037e-02	1.668037e-02	5.000000e+00	
37	2.930000e-02	1.668036e-02	1.668036e-02	5.000000e+00	
38	3.080000e-02	1.668036e-02	1.668036e-02	5.000000e+00	
39	3.230000e-02	1.668037e-02	1.668037e-02	5.000000e+00	
40	3.380000e-02	1.668037e-02	1.668037e-02	5.000000e+00	
41	3.530000e-02	1.668036e-02	1.668036e-02	5.000000e+00	
42	3.680000e-02	1.668037e-02	1.668037e-02	5.000000e+00	
43	3.830000e-02	1.668037e-02	1.668037e-02	5.000000e+00	
44	3.980000e-02	1.668036e-02	1.668036e-02	5.000000e+00	
45	4.130000e-02	1.668036e-02	1.668036e-02	5.000000e+00	
46	4.280000e-02	1.668037e-02	1.668037e-02	5.000000e+00	
47	4.430000e-02	1.668037e-02	1.668037e-02	5.000000e+00	
48	4.580000e-02	1.668036e-02	1.668036e-02	5.000000e+00	
49	4.730000e-02	1.668037e-02	1.668037e-02	5.000000e+00	
50	4.880000e-02	1.668037e-02	1.668037e-02	5.000000e+00	
51	5.030000e-02	1.668037e-02	1.668037e-02	5.000000e+00	
52	5.180000e-02	1.668038e-02	1.668038e-02	5.000000e+00	
53	5.330000e-02	1.668037e-02	1.668037e-02	5.000000e+00	
54	5.480000e-02	1.668037e-02	1.668037e-02	5.000000e+00	

Index   time            m.x1.xm2.msky13 m.x1.xm2.msky13 m.x1.xm3.msky13 
--------------------------------------------------------------------------------
55	5.630000e-02	1.668038e-02	1.668038e-02	5.000000e+00	
56	5.780000e-02	1.668037e-02	1.668037e-02	5.000000e+00	
57	5.930000e-02	1.668037e-02	1.668037e-02	5.000000e+00	
58	6.080000e-02	1.668037e-02	1.668037e-02	5.000000e+00	
59	6.230000e-02	1.668037e-02	1.668037e-02	5.000000e+00	
60	6.380000e-02	1.668038e-02	1.668038e-02	5.000000e+00	
61	6.530000e-02	1.668037e-02	1.668037e-02	5.000000e+00	
62	6.680000e-02	1.668037e-02	1.668037e-02	5.000000e+00	
63	6.830000e-02	1.668038e-02	1.668038e-02	5.000000e+00	
64	6.980000e-02	1.668037e-02	1.668037e-02	5.000000e+00	
65	7.130000e-02	1.668036e-02	1.668036e-02	5.000000e+00	
66	7.280000e-02	1.668036e-02	1.668036e-02	5.000000e+00	
67	7.430000e-02	1.668037e-02	1.668037e-02	5.000000e+00	
68	7.580000e-02	1.668037e-02	1.668037e-02	5.000000e+00	
69	7.730000e-02	1.668037e-02	1.668037e-02	5.000000e+00	
70	7.880000e-02	1.668038e-02	1.668038e-02	5.000000e+00	
71	8.030000e-02	1.668037e-02	1.668037e-02	5.000000e+00	
72	8.180000e-02	1.668037e-02	1.668037e-02	5.000000e+00	
73	8.330000e-02	1.668038e-02	1.668038e-02	5.000000e+00	
74	8.480000e-02	1.668037e-02	1.668037e-02	5.000000e+00	
75	8.630000e-02	1.668037e-02	1.668037e-02	5.000000e+00	
76	8.780000e-02	1.668038e-02	1.668038e-02	5.000000e+00	
77	8.930000e-02	1.668037e-02	1.668037e-02	5.000000e+00	
78	9.080000e-02	1.668037e-02	1.668037e-02	5.000000e+00	
79	9.230000e-02	1.668038e-02	1.668038e-02	5.000000e+00	
80	9.380000e-02	1.668037e-02	1.668037e-02	5.000000e+00	
81	9.530000e-02	1.668037e-02	1.668037e-02	5.000000e+00	
82	9.680000e-02	1.668038e-02	1.668038e-02	5.000000e+00	
83	9.830000e-02	1.668037e-02	1.668037e-02	5.000000e+00	
84	9.980000e-02	1.668037e-02	1.668037e-02	5.000000e+00	
85	1.000000e-01	1.668037e-02	1.668037e-02	5.000000e+00	

         * c:\users\dell\esim-workspace\mod-10_ripple\mod-10_ripple.cir
         Transient Analysis  Sat Oct 08 20:35:21  2022
--------------------------------------------------------------------------------
Index   time            m.x1.xm3.msky13 m.x1.xm3.msky13 m.x1.xm4.msky13 
--------------------------------------------------------------------------------
0	0.000000e+00	5.000000e+00	5.000000e+00	5.000000e+00	
1	1.000000e-05	5.000000e+00	5.000000e+00	5.000000e+00	
2	2.000000e-05	5.000000e+00	5.000000e+00	5.000000e+00	
3	4.000000e-05	5.000000e+00	5.000000e+00	5.000000e+00	
4	8.000000e-05	5.000000e+00	5.000000e+00	5.000000e+00	
5	1.600000e-04	5.000000e+00	5.000000e+00	5.000000e+00	
6	3.200000e-04	5.000000e+00	5.000000e+00	5.000000e+00	
7	6.400000e-04	5.000000e+00	5.000000e+00	5.000000e+00	
8	1.280000e-03	5.000000e+00	5.000000e+00	5.000000e+00	
9	1.500000e-03	5.000000e+00	5.000000e+00	5.000000e+00	
10	1.628000e-03	5.000000e+00	5.000000e+00	5.000000e+00	
11	1.884000e-03	5.000000e+00	5.000000e+00	5.000000e+00	
12	2.396000e-03	5.000000e+00	5.000000e+00	5.000000e+00	
13	3.420000e-03	5.000000e+00	5.000000e+00	5.000000e+00	
14	4.920000e-03	5.000000e+00	5.000000e+00	5.000000e+00	
15	6.420000e-03	5.000000e+00	5.000000e+00	5.000000e+00	
16	7.920000e-03	5.000000e+00	5.000000e+00	5.000000e+00	
17	9.420000e-03	5.000000e+00	5.000000e+00	5.000000e+00	
18	9.500000e-03	5.000000e+00	5.000000e+00	5.000000e+00	
19	9.650000e-03	5.000000e+00	5.000000e+00	5.000000e+00	
20	9.950000e-03	5.000000e+00	5.000000e+00	5.000000e+00	
21	1.055000e-02	5.000000e+00	5.000000e+00	5.000000e+00	
22	1.100000e-02	5.000000e+00	5.000000e+00	5.000000e+00	
23	1.112000e-02	5.000000e+00	5.000000e+00	5.000000e+00	
24	1.136000e-02	5.000000e+00	5.000000e+00	5.000000e+00	
25	1.184000e-02	5.000000e+00	5.000000e+00	5.000000e+00	
26	1.280000e-02	5.000000e+00	5.000000e+00	5.000000e+00	
27	1.430000e-02	5.000000e+00	5.000000e+00	5.000000e+00	
28	1.580000e-02	5.000000e+00	5.000000e+00	5.000000e+00	
29	1.730000e-02	5.000000e+00	5.000000e+00	5.000000e+00	
30	1.880000e-02	5.000000e+00	5.000000e+00	5.000000e+00	
31	2.030000e-02	5.000000e+00	5.000000e+00	5.000000e+00	
32	2.180000e-02	5.000000e+00	5.000000e+00	5.000000e+00	
33	2.330000e-02	5.000000e+00	5.000000e+00	5.000000e+00	
34	2.480000e-02	5.000000e+00	5.000000e+00	5.000000e+00	
35	2.630000e-02	5.000000e+00	5.000000e+00	5.000000e+00	
36	2.780000e-02	5.000000e+00	5.000000e+00	5.000000e+00	
37	2.930000e-02	5.000000e+00	5.000000e+00	5.000000e+00	
38	3.080000e-02	5.000000e+00	5.000000e+00	5.000000e+00	
39	3.230000e-02	5.000000e+00	5.000000e+00	5.000000e+00	
40	3.380000e-02	5.000000e+00	5.000000e+00	5.000000e+00	
41	3.530000e-02	5.000000e+00	5.000000e+00	5.000000e+00	
42	3.680000e-02	5.000000e+00	5.000000e+00	5.000000e+00	
43	3.830000e-02	5.000000e+00	5.000000e+00	5.000000e+00	
44	3.980000e-02	5.000000e+00	5.000000e+00	5.000000e+00	
45	4.130000e-02	5.000000e+00	5.000000e+00	5.000000e+00	
46	4.280000e-02	5.000000e+00	5.000000e+00	5.000000e+00	
47	4.430000e-02	5.000000e+00	5.000000e+00	5.000000e+00	
48	4.580000e-02	5.000000e+00	5.000000e+00	5.000000e+00	
49	4.730000e-02	5.000000e+00	5.000000e+00	5.000000e+00	
50	4.880000e-02	5.000000e+00	5.000000e+00	5.000000e+00	
51	5.030000e-02	5.000000e+00	5.000000e+00	5.000000e+00	
52	5.180000e-02	5.000000e+00	5.000000e+00	5.000000e+00	
53	5.330000e-02	5.000000e+00	5.000000e+00	5.000000e+00	
54	5.480000e-02	5.000000e+00	5.000000e+00	5.000000e+00	

Index   time            m.x1.xm3.msky13 m.x1.xm3.msky13 m.x1.xm4.msky13 
--------------------------------------------------------------------------------
55	5.630000e-02	5.000000e+00	5.000000e+00	5.000000e+00	
